!File created by NanoVNA
# Hz S RI R 50
   1500000  0.988886080  0.108916752
   1513500  0.988709696  0.106897680
   1527000  0.989160256  0.104950176
   1540500  0.989072768  0.103350696
   1554000  0.989316672  0.101620488
   1567500  0.989586432  0.100441496
   1581000  0.989679680  0.098279128
   1594500  0.989667136  0.096503992
   1608000  0.989788736  0.095194984
   1621500  0.990041984  0.093666456
   1635000  0.990297408  0.091943864
   1648500  0.990185600  0.090396096
   1662000  0.990406400  0.088735200
   1675500  0.990269952  0.086606224
   1689000  0.990242560  0.085990576
   1702500  0.990395392  0.084110688
   1716000  0.990312128  0.082771464
   1729500  0.991016960  0.081108624
   1743000  0.990858432  0.079906784
   1756500  0.990753280  0.078197536
   1770000  0.991022144  0.076938712
   1783500  0.990914176  0.075667520
   1797000  0.991045888  0.073794280
   1810500  0.990979584  0.072754320
   1824000  0.990810176  0.071365120
   1837500  0.991233280  0.070123168
   1851000  0.990797568  0.068738576
   1864500  0.991361280  0.067559704
   1878000  0.991211072  0.065905788
   1891500  0.991187008  0.064720968
   1905000  0.990984512  0.063405044
   1918500  0.991485632  0.062395068
   1932000  0.991215424  0.060773848
   1945500  0.991249088  0.059497580
   1959000  0.991162048  0.058200232
   1972500  0.991112576  0.056752788
   1986000  0.991440896  0.055246836
   1999500  0.991265280  0.055046280
   2013000  0.991200768  0.053683192
   2026500  0.991119424  0.052108124
   2040000  0.990538368  0.051050860
   2053500  0.991593152  0.049246084
   2067000  0.992183296  0.049028072
   2080500  0.991321728  0.047537052
   2094000  0.991493504  0.046264752
   2107500  0.991471360  0.045106728
   2121000  0.991313472  0.043498464
   2134500  0.990917184  0.042339264
   2148000  0.991208576  0.040978104
   2161500  0.991165888  0.040994492
   2175000  0.990855488  0.039374488
   2188500  0.990798784  0.038046736
   2202000  0.991311936  0.036951020
   2215500  0.990789504  0.035953672
   2229000  0.990437888  0.034661804
   2242500  0.991031424  0.033208884
   2256000  0.990854272  0.033370906
   2269500  0.990374720  0.031868544
   2283000  0.990176000  0.030185188
   2296500  0.990258304  0.029264756
   2310000  0.990726464  0.028066782
   2323500  0.990146624  0.028101596
   2337000  0.989898624  0.026523574
   2350500  0.990230016  0.026068746
   2364000  0.989801920  0.025023184
   2377500  0.989846592  0.023469362
   2391000  0.989682112  0.022823426
   2404500  0.989955328  0.021638758
   2418000  0.990253184  0.020815804
   2431500  0.990172224  0.020066848
   2445000  0.990068160  0.018205334
   2458500  0.990309568  0.017784994
   2472000  0.990540928  0.016618986
   2485500  0.990240960  0.016036705
   2499000  0.989720320  0.014747026
   2512500  0.989993472  0.013946779
   2526000  0.990073728  0.012854149
   2539500  0.989669184  0.011467429
   2553000  0.990063552  0.010710723
   2566500  0.990234368  0.009947982
   2580000  0.989895552  0.008843547
   2593500  0.989611328  0.008045211
   2607000  0.989266816  0.006801649
   2620500  0.989527040  0.005976759
   2634000  0.989455232  0.005077253
   2647500  0.989449600  0.004346069
   2661000  0.989540096  0.003574862
   2674500  0.989167104  0.002727289
   2688000  0.989147072  0.001364352
   2701500  0.988776000  0.000647557
   2715000  0.988811328 -0.000043227
   2728500  0.988607296 -0.001022359
   2742000  0.988410944 -0.001795522
   2755500  0.988592832 -0.002983967
   2769000  0.988290112 -0.004182808
   2782500  0.987810880 -0.004710492
   2796000  0.988124864 -0.005785558
   2809500  0.988118144 -0.006531209
   2823000  0.988075584 -0.006879066
   2836500  0.987912448 -0.008148226
   2850000  0.987308480 -0.009135264
   2863500  0.987496768 -0.010215205
   2877000  0.987653056 -0.010512540
   2890500  0.987194368 -0.011603329
   2904000  0.987061376 -0.012571890
   2917500  0.987364480 -0.013748824
   2931000  0.987069504 -0.014437357
   2944500  0.986750336 -0.015178441
   2958000  0.986275136 -0.015987730
   2971500  0.986212608 -0.016638428
   2985000  0.986059008 -0.017995972
   2998500  0.986309824 -0.018472740
   3012000  0.985959040 -0.019298750
   3025500  0.986101120 -0.020613946
   3039000  0.986041024 -0.021104776
   3052500  0.985951680 -0.022456720
   3066000  0.985397440 -0.022278774
   3079500  0.985038208 -0.023441250
   3093000  0.985166720 -0.024710728
   3106500  0.985399104 -0.025481926
   3120000  0.984493696 -0.026015674
   3133500  0.984374080 -0.026671886
   3147000  0.984566080 -0.028009242
   3160500  0.984638464 -0.029158888
   3174000  0.984456832 -0.029032606
   3187500  0.983705280 -0.030120278
   3201000  0.983812224 -0.031181918
   3214500  0.983550336 -0.031808750
   3228000  0.983167808 -0.033426118
   3241500  0.983254656 -0.033758036
   3255000  0.983068864 -0.034495140
   3268500  0.982699328 -0.035002812
   3282000  0.982174336 -0.036046388
   3295500  0.982456064 -0.037613016
   3309000  0.982308352 -0.038168980
   3322500  0.982046720 -0.038743140
   3336000  0.981680576 -0.039388504
   3349500  0.981682112 -0.040637420
   3363000  0.981427072 -0.040660868
   3376500  0.980970816 -0.041661048
   3390000  0.980896128 -0.042847528
   3403500  0.981020096 -0.043777556
   3417000  0.980657152 -0.044582812
   3430500  0.980350976 -0.045462732
   3444000  0.980048960 -0.046009148
   3457500  0.980202880 -0.046848472
   3471000  0.979506496 -0.047563708
   3484500  0.979172352 -0.048614816
   3498000  0.979009728 -0.049293608
   3511500  0.978993216 -0.049935552
   3525000  0.978483072 -0.050114536
   3538500  0.978087168 -0.051056320
   3552000  0.977738304 -0.052666800
   3565500  0.977821696 -0.053181796
   3579000  0.977097664 -0.054024020
   3592500  0.977068480 -0.054268400
   3606000  0.977112960 -0.055310436
   3619500  0.976674368 -0.055989156
   3633000  0.976200960 -0.056550384
   3646500  0.975676608 -0.058219088
   3660000  0.975897280 -0.058259780
   3673500  0.975632384 -0.058732680
   3687000  0.974745088 -0.059066252
   3700500  0.975472896 -0.060541632
   3714000  0.974647936 -0.060477084
   3727500  0.974290240 -0.061154868
   3741000  0.973733184 -0.063043176
   3754500  0.973883072 -0.063291304
   3768000  0.973540352 -0.063671992
   3781500  0.973062144 -0.064257868
   3795000  0.973239168 -0.065274552
   3808500  0.972891712 -0.065267928
   3822000  0.972437888 -0.066254916
   3835500  0.971878272 -0.067618784
   3849000  0.972269056 -0.067886152
   3862500  0.971739200 -0.068921112
   3876000  0.971488576 -0.069229472
   3889500  0.971129792 -0.069846776
   3903000  0.970927616 -0.070679736
   3916500  0.970865664 -0.071332880
   3930000  0.970535104 -0.072199616
   3943500  0.970077568 -0.072725992
   3957000  0.969862144 -0.073673440
   3970500  0.969505472 -0.074079952
   3984000  0.968971584 -0.074278576
   3997500  0.969267904 -0.075778608
   4011000  0.969167552 -0.075970592
   4024500  0.968658752 -0.077210096
   4038000  0.968017216 -0.077164312
   4051500  0.967725120 -0.078698280
   4065000  0.968075520 -0.079075920
   4078500  0.967647616 -0.079070720
   4092000  0.967509312 -0.080154848
   4105500  0.967503168 -0.080683528
   4119000  0.966908608 -0.081657752
   4132500  0.966480576 -0.081630128
   4146000  0.966286336 -0.082743880
   4159500  0.966610496 -0.083306728
   4173000  0.966262848 -0.084103432
   4186500  0.965717824 -0.084651488
   4200000  0.965039232 -0.085288256
   4213500  0.965619072 -0.086676392
   4227000  0.965369920 -0.087095440
   4240500  0.965079936 -0.087517192
   4254000  0.965031680 -0.088527176
   4267500  0.965399360 -0.089314056
   4281000  0.964655936 -0.090064912
   4294500  0.964438528 -0.090627568
   4308000  0.964090496 -0.091817552
   4321500  0.964119872 -0.092674384
   4335000  0.964117056 -0.093210144
   4348500  0.963421568 -0.093759504
   4362000  0.963696000 -0.094620608
   4375500  0.963089920 -0.095737328
   4389000  0.962849728 -0.096506208
   4402500  0.962541632 -0.097057800
   4416000  0.962017664 -0.098301768
   4429500  0.962618880 -0.099033640
   4443000  0.962030912 -0.099932288
   4456500  0.961534848 -0.100709232
   4470000  0.960958592 -0.101739120
   4483500  0.961234240 -0.102709888
   4497000  0.960347520 -0.103293736
   4510500  0.960118272 -0.104319080
   4524000  0.960565568 -0.104818352
   4537500  0.959812480 -0.105871400
   4551000  0.958984000 -0.106555608
   4564500  0.959378880 -0.107800184
   4578000  0.959092736 -0.108524112
   4591500  0.958568128 -0.109250952
   4605000  0.958399936 -0.110227224
   4618500  0.958116672 -0.110851424
   4632000  0.957724224 -0.112198496
   4645500  0.956963776 -0.112372056
   4659000  0.957105472 -0.113452480
   4672500  0.956798592 -0.114603712
   4686000  0.956298688 -0.115081104
   4699500  0.956277824 -0.115925816
   4713000  0.955931712 -0.116596384
   4726500  0.955518528 -0.117978584
   4740000  0.955410944 -0.119033224
   4753500  0.954629888 -0.119992288
   4767000  0.954761792 -0.120707888
   4780500  0.954419200 -0.121697512
   4794000  0.953856512 -0.122538160
   4807500  0.953147264 -0.123262632
   4821000  0.953099328 -0.125015664
   4834500  0.952809856 -0.125341312
   4848000  0.952131392 -0.125870008
   4861500  0.951916096 -0.127518792
   4875000  0.950847488 -0.127848000
   4888500  0.950583296 -0.130021096
   4902000  0.950253696 -0.130853728
   4915500  0.950200832 -0.131074888
   4929000  0.949464128 -0.132438704
   4942500  0.949164032 -0.133302448
   4956000  0.948156928 -0.134199248
   4969500  0.947242624 -0.134818608
   4983000  0.947212608 -0.136893856
   4996500  0.947142336 -0.137227616
   5010000  0.946466880 -0.138094368
   5023500  0.945924736 -0.139208992
   5037000  0.945362880 -0.139726400
   5050500  0.944588160 -0.141095248
   5064000  0.943732736 -0.141424992
   5077500  0.943619200 -0.143566576
   5091000  0.943066816 -0.144215792
   5104500  0.942453248 -0.144912928
   5118000  0.941454592 -0.146291440
   5131500  0.941259392 -0.147133344
   5145000  0.940449792 -0.147928928
   5158500  0.939184704 -0.148593280
   5172000  0.938897408 -0.150731104
   5185500  0.938426560 -0.150969536
   5199000  0.938065216 -0.151870512
   5212500  0.936866624 -0.152932448
   5226000  0.936899328 -0.154098064
   5239500  0.935604416 -0.155124576
   5253000  0.934661696 -0.156356144
   5266500  0.933951872 -0.157489008
   5280000  0.933555136 -0.158079856
   5293500  0.933075840 -0.158634416
   5307000  0.932046208 -0.159490544
   5320500  0.930942080 -0.160511392
   5334000  0.930159232 -0.161921504
   5347500  0.929740736 -0.162499056
   5361000  0.928581952 -0.163896656
   5374500  0.927532544 -0.164708448
   5388000  0.926995136 -0.165462160
   5401500  0.926453376 -0.166463760
   5415000  0.925811456 -0.166981136
   5428500  0.924675968 -0.168163072
   5442000  0.924066432 -0.168830576
   5455500  0.923322560 -0.170043312
   5469000  0.922405888 -0.170308800
   5482500  0.921052544 -0.171224272
   5496000  0.921322816 -0.172109136
   5509500  0.920535680 -0.172804128
   5523000  0.919597120 -0.173449312
   5536500  0.918508416 -0.174541712
   5550000  0.917706624 -0.175617856
   5563500  0.916878144 -0.176175120
   5577000  0.916354496 -0.177238128
   5590500  0.915387200 -0.178094528
   5604000  0.915411904 -0.178268368
   5617500  0.914566784 -0.179355280
   5631000  0.914207936 -0.179913664
   5644500  0.913547968 -0.180792944
   5658000  0.912787520 -0.181987312
   5671500  0.911948416 -0.182763328
   5685000  0.912004864 -0.183825312
   5698500  0.911583424 -0.184502640
   5712000  0.911826624 -0.185551824
   5725500  0.911328896 -0.186241680
   5739000  0.910997632 -0.187559552
   5752500  0.909908160 -0.188758432
   5766000  0.909841984 -0.190145584
   5779500  0.909936576 -0.191414816
   5793000  0.909368128 -0.192228016
   5806500  0.908943808 -0.193810560
   5820000  0.908891200 -0.195178448
   5833500  0.908599616 -0.196256912
   5847000  0.908257344 -0.198165616
   5860500  0.908195136 -0.199756688
   5874000  0.907297088 -0.201432032
   5887500  0.907361536 -0.203227136
   5901000  0.906907200 -0.205017888
   5914500  0.906603712 -0.206835712
   5928000  0.906459264 -0.208834640
   5941500  0.905641408 -0.211300816
   5955000  0.905450176 -0.213377888
   5968500  0.904920128 -0.215513200
   5982000  0.904118848 -0.217424032
   5995500  0.903476288 -0.219692144
   6009000  0.903438016 -0.221985472
   6022500  0.902626368 -0.224885248
   6036000  0.901495616 -0.227175808
   6049500  0.900692736 -0.230165776
   6063000  0.900137920 -0.232868736
   6076500  0.898769472 -0.235064800
   6090000  0.898149760 -0.237738384
   6103500  0.897015616 -0.241042736
   6117000  0.895879360 -0.243936864
   6130500  0.894563072 -0.247215264
   6144000  0.893378688 -0.250226464
   6157500  0.891690176 -0.252924688
   6171000  0.890277568 -0.255888704
   6184500  0.888695040 -0.259563120
   6198000  0.886929280 -0.262464496
   6211500  0.885183168 -0.265715088
   6225000  0.883471936 -0.269618592
   6238500  0.881628352 -0.272847392
   6252000  0.879136000 -0.276660736
   6265500  0.877832960 -0.280278016
   6279000  0.875019072 -0.283455232
   6292500  0.873178432 -0.287012256
   6306000  0.870229184 -0.291301664
   6319500  0.868076416 -0.295231712
   6333000  0.864941824 -0.299124608
   6346500  0.862048000 -0.303238656
   6360000  0.859670848 -0.306806816
   6373500  0.856070784 -0.311120288
   6387000  0.852732544 -0.315313696
   6400500  0.849773696 -0.319655744
   6414000  0.846027456 -0.324385536
   6427500  0.842273344 -0.328947904
   6441000  0.838584320 -0.333556800
   6454500  0.834865088 -0.337236192
   6468000  0.829604800 -0.342256000
   6481500  0.825558784 -0.347647840
   6495000  0.820672256 -0.352325344
   6508500  0.815761088 -0.357236064
   6522000  0.810813120 -0.361977568
   6535500  0.805554112 -0.367555584
   6549000  0.800104960 -0.371746912
   6562500  0.793415808 -0.378130208
   6576000  0.787514624 -0.383146912
   6589500  0.780784576 -0.388873600
   6603000  0.773812096 -0.394180992
   6616500  0.766696192 -0.399622560
   6630000  0.758557376 -0.405791392
   6643500  0.751077504 -0.411064000
   6657000  0.742036672 -0.417413632
   6670500  0.732903360 -0.422699296
   6684000  0.722266496 -0.428796384
   6697500  0.713297536 -0.434576288
   6711000  0.702729088 -0.439861248
   6724500  0.690600960 -0.445330560
   6738000  0.678755904 -0.452034688
   6751500  0.665956544 -0.457354496
   6765000  0.652105088 -0.462367712
   6778500  0.645585152 -0.450665056
   6792000  0.630892480 -0.456047776
   6805500  0.615028288 -0.461087552
   6819000  0.597906112 -0.466805184
   6832500  0.580182272 -0.471258304
   6846000  0.561340160 -0.475073600
   6859500  0.541441600 -0.479160192
   6873000  0.519750240 -0.482047808
   6886500  0.498454912 -0.483908640
   6900000  0.473713408 -0.485040096
   6913500  0.448056832 -0.485467008
   6927000  0.422576000 -0.483302272
   6940500  0.394025280 -0.480133664
   6954000  0.364723040 -0.476150944
   6967500  0.334785248 -0.468322272
   6981000  0.303106112 -0.458386656
   6994500  0.270161408 -0.446028768
   7008000  0.237000912 -0.431000096
   7021500  0.203673216 -0.411050912
   7035000  0.169421632 -0.389221536
   7048500  0.142476064 -0.360534560
   7062000  0.110159528 -0.329657344
   7075500  0.078081592 -0.295080544
   7089000  0.050384304 -0.257421280
   7102500  0.026946282 -0.213646528
   7116000  0.004551459 -0.167302496
   7129500 -0.010825499 -0.117642616
   7143000 -0.020144292 -0.065867736
   7156500 -0.026049168 -0.011997249
   7170000 -0.026375924  0.041005104
   7183500 -0.020124460  0.094109696
   7197000 -0.009490846  0.148905488
   7210500  0.007580071  0.198775936
   7224000  0.030707010  0.246466848
   7237500  0.056717224  0.291641696
   7251000  0.086312568  0.332268032
   7264500  0.119555448  0.367040640
   7278000  0.154831680  0.400126784
   7291500  0.191171648  0.426979456
   7305000  0.228109456  0.448361696
   7318500  0.264961248  0.467184736
   7332000  0.301639232  0.481706496
   7345500  0.337139808  0.492269664
   7359000  0.372469632  0.500379136
   7372500  0.405130880  0.504647424
   7386000  0.437828896  0.507380064
   7399500  0.467429536  0.507475200
   7413000  0.495338048  0.506021920
   7426500  0.522559648  0.503317408
   7440000  0.547875264  0.500349152
   7453500  0.571275712  0.495277184
   7467000  0.594349504  0.489682144
   7480500  0.615310400  0.482748352
   7494000  0.634556224  0.475650496
   7507500  0.652750336  0.468489824
   7521000  0.670545856  0.460637952
   7534500  0.685993984  0.452865600
   7548000  0.700374784  0.444059072
   7561500  0.715272128  0.436374368
   7575000  0.727161664  0.427185888
   7588500  0.739431104  0.419315328
   7602000  0.750286912  0.410805792
   7615500  0.761247616  0.402602240
   7629000  0.770515328  0.395032896
   7642500  0.779488384  0.386738592
   7656000  0.788200384  0.379110592
   7669500  0.796404672  0.370890752
   7683000  0.804041472  0.363838400
   7696500  0.810114816  0.356367808
   7710000  0.818300352  0.349601152
   7723500  0.823483008  0.342901536
   7737000  0.829272896  0.335500192
   7750500  0.834404992  0.329100704
   7764000  0.852201856  0.309888992
   7777500  0.856321088  0.303275104
   7791000  0.860779200  0.297431904
   7804500  0.865600896  0.291284160
   7818000  0.869193216  0.285172480
   7831500  0.873170304  0.279459040
   7845000  0.876688320  0.273610848
   7858500  0.881044608  0.267927824
   7872000  0.883776448  0.262822624
   7885500  0.886460992  0.257889568
   7899000  0.890291200  0.252682176
   7912500  0.893123264  0.247090768
   7926000  0.895546176  0.242511536
   7939500  0.897747776  0.237465424
   7953000  0.900415424  0.232615520
   7966500  0.902238464  0.228179808
   7980000  0.904638144  0.223696544
   7993500  0.907416896  0.219630592
   8007000  0.908271616  0.215703664
   8020500  0.910402752  0.211165520
   8034000  0.912378880  0.206934208
   8047500  0.914871424  0.203086784
   8061000  0.915588928  0.199068816
   8074500  0.917213568  0.195328160
   8088000  0.918780160  0.191468528
   8101500  0.919890624  0.188405616
   8115000  0.920991232  0.184527776
   8128500  0.922159744  0.180898768
   8142000  0.924644736  0.177371984
   8155500  0.924522624  0.174073520
   8169000  0.925829248  0.171428176
   8182500  0.927569984  0.167615056
   8196000  0.928017600  0.165116512
   8209500  0.928971200  0.161903680
   8223000  0.930614848  0.158164608
   8236500  0.931265984  0.155720448
   8250000  0.931396928  0.152598752
   8263500  0.932628928  0.150274144
   8277000  0.934083648  0.146861728
   8290500  0.934190720  0.144992624
   8304000  0.935170496  0.141938672
   8317500  0.934893248  0.138977008
   8331000  0.937237248  0.136438704
   8344500  0.936588928  0.133796408
   8358000  0.937879360  0.131869944
   8371500  0.938711296  0.128809704
   8385000  0.939019072  0.126847640
   8398500  0.938902848  0.124521408
   8412000  0.939645696  0.122034896
   8425500  0.940537472  0.119550048
   8439000  0.940589696  0.117515208
   8452500  0.941067520  0.115640344
   8466000  0.942237632  0.112496240
   8479500  0.942281088  0.111281304
   8493000  0.942454208  0.108973224
   8506500  0.943240384  0.106415152
   8520000  0.944172992  0.104494032
   8533500  0.944166144  0.102266624
   8547000  0.944210304  0.100952424
   8560500  0.944152896  0.098675152
   8574000  0.945805312  0.096174192
